
T0C9C 000:484 SEGGER J-Link V4.35b (beta) Log File (0001ms, 0481ms total)
T0C9C 000:484 DLL Compiled: Sep  2 2011 18:34:46 (0001ms, 0481ms total)
T0C9C 000:484 Logging started @ 2012-06-21 20:03 (0001ms, 0481ms total)
T0C9C 000:485 JLINK_SetWarnOutHandler(...) (0000ms, 0482ms total)
T0C9C 000:485 JLINK_OpenEx(...)
Firmware: J-Link ARM V8 compiled Sep  2 2011 17:54:36
Hardware: V8.00
S/N: 20100214
Feature(s): RDI,FlashDL,FlashBP,JFlash,GDBFull  returns O.K. (0194ms, 0482ms total)
T0C9C 000:680 JLINK_SetErrorOutHandler(...) (0000ms, 0676ms total)
T0C9C 000:681 JLINK_ExecCommand("ProjectFile = "F:\robot\New_car\MDK\JLinkSettings.ini"", ...)  returns 0x00 (0001ms, 0676ms total)
T0C9C 000:687 JLINK_ExecCommand("DisableConnectionTimeout", ...)  returns 0x00 (0000ms, 0677ms total)
T0C9C 000:690 JLINK_TIF_Select(JLINKARM_TIF_JTAG)  returns 0x00 (0000ms, 0677ms total)
T0C9C 000:690 JLINK_SetSpeed(5000) (0001ms, 0677ms total)
T0C9C 000:691 JLINK_GetHardwareVersion()  returns 0x13880 (0000ms, 0678ms total)
T0C9C 000:691 JLINK_GetDLLVersion()  returns 43502 (0000ms, 0678ms total)
T0C9C 000:691 JLINK_GetFirmwareString(...) (0000ms, 0678ms total)
T0C9C 000:699 JLINK_GetDLLVersion()  returns 43502 (0000ms, 0678ms total)
T0C9C 000:699 JLINK_GetCompileDateTime() (0000ms, 0678ms total)
T0C9C 000:702 JLINK_GetFirmwareString(...) (0000ms, 0678ms total)
T0C9C 000:705 JLINK_GetHardwareVersion()  returns 0x13880 (0000ms, 0678ms total)
T0C9C 000:716 JLINK_Reset() >0x2F8 JTAG>TotalIRLen = 9, IRPrint = 0x0011 >0x30 JTAG> >0x210 JTAG> >0x80 JTAG> >0x40 JTAG> >0x40 JTAG> >0x50 JTAG> >0x40 JTAG> >0x40 JTAG> >0x40 JTAG> >0x50 JTAG> >0x40 JTAG> >0x50 JTAG> >0x40 JTAG> >0x40 JTAG> >0x40 JTAG> >0x30 JTAG> >0x40 JTAG> >0x50 JTAG> >0x40 JTAG> >0x38 JTAG> >0x80 JTAG> >0x40 JTAG> >0x40 JTAG> >0x50 JTAG> >0x40 JTAG> >0x40 JTAG> >0x40 JTAG> >0x50 JTAG> >0x40 JTAG> >0x40 JTAG> >0x30 JTAG> >0x40 JTAG> >0x40 JTAG> >0x40 JTAG> >0x40 JTAG> >0x40 JTAG>
 >0x50 JTAG> >0x40 JTAG> >0x80 JTAG> >0x40 JTAG> >0x30 JTAG> >0x40 JTAG> >0x40 JTAG> >0x40 JTAG> >0x40 JTAG> >0x40 JTAG> >0x50 JTAG> >0x40 JTAG> >0x80 JTAG> >0x40 JTAG> >0x30 JTAG> >0x40 JTAG> >0x50 JTAG> >0x40 JTAG> >0x40 JTAG> >0x40 JTAG> >0x30 JTAG> >0x40 JTAG> >0x50 JTAG> >0x40 JTAG>Found Cortex-M4 r0p1, Little endian. >0x50 JTAG> >0x50 JTAG> >0x40 JTAG> >0x40 JTAG> >0x30 JTAG> >0x30 JTAG> >0x50 JTAG> >0x40 JTAG> >0x80 JTAG> >0x40 JTAG> >0x30 JTAG> >0x40 JTAG> >0x50 JTAG> >0x40 JTAG> >0x40 JTAG>
 >0x40 JTAG> >0x30 JTAG> >0x30 JTAG> >0x50 JTAG> >0x40 JTAG> >0x80 JTAG> >0x40 JTAG> >0x30 JTAG> >0x40 JTAG> >0x50 JTAG> >0x40 JTAG>TPIU fitted. >0x40 JTAG> >0x40 JTAG> >0x30 JTAG> >0x40 JTAG> >0x50 JTAG> >0x40 JTAG>ETM fitted. >0x40 JTAG> >0x40 JTAG> >0x30 JTAG> >0x40 JTAG> >0x50 JTAG> >0x40 JTAG> >0x40 JTAG> >0x40 JTAG> >0x30 JTAG> >0x40 JTAG> >0x50 JTAG> >0x40 JTAG>  FPUnit: 6 code (BP) slots and 2 literal slots >0x40 JTAG> >0x40 JTAG> >0x30 JTAG> >0x40 JTAG> >0x50 JTAG> >0x40 JTAG> -- CPU is running
 -- CPU_WriteMem(4 bytes @ 0xE000EDF0) -- CPU is running -- CPU_WriteMem(4 bytes @ 0xE000EDFC) -- CPU is running -- CPU_WriteMem(4 bytes @ 0xE000ED0C) -- CPU is running -- CPU_ReadMem(4 bytes @ 0xE000EDF0) -- CPU is running -- CPU_ReadMem(4 bytes @ 0xE000EDF0) -- CPU is running -- CPU_ReadMem(4 bytes @ 0xE000EDF0) -- CPU is running -- CPU_ReadMem(4 bytes @ 0xE000EDF0) -- CPU is running -- CPU_ReadMem(4 bytes @ 0xE000EDF0) -- CPU is running -- CPU_ReadMem(4 bytes @ 0xE000EDF0) -- CPU is running
 -- CPU_ReadMem(4 bytes @ 0xE000EDF0) -- CPU is running -- CPU_ReadMem(4 bytes @ 0xE000EDF0) -- CPU is running -- CPU_ReadMem(4 bytes @ 0xE000EDF0) -- CPU is running -- CPU_ReadMem(4 bytes @ 0xE000EDF0) -- CPU is running -- CPU_WriteMem(4 bytes @ 0xE000EDF0) -- CPU is running -- CPU_WriteMem(4 bytes @ 0xE000EDFC) -- CPU is running -- CPU_ReadMem(4 bytes @ 0xE000EDF0) >0x90 JTAG> >0x40 JTAG> >0x30 JTAG> >0x40 JTAG> >0x50 JTAG> >0x40 JTAG> -- CPU_WriteMem(4 bytes @ 0xE000EDFC)
 -- CPU_WriteMem(4 bytes @ 0xE0001028) -- CPU_WriteMem(4 bytes @ 0xE0001038) -- CPU_WriteMem(4 bytes @ 0xE0001048) -- CPU_WriteMem(4 bytes @ 0xE0001058) (0181ms, 0678ms total)
T0C9C 000:897 JLINK_GetIdData(...) ScanLen=9 NumDevices=2 aId[0]=0x4BA00477 aIrRead[0]=0 aScanLen[0]=0 aScanRead[0]=0 (0000ms, 0859ms total)
T0C9C 000:897 JLINK_JTAG_GetDeviceID(DeviceIndex = 0)  returns 0x4BA00477 (0000ms, 0859ms total)
T0C9C 000:897 JLINK_JTAG_GetDeviceInfo(DeviceIndex = 0)  returns 0x00 (0000ms, 0859ms total)
T0C9C 000:897 JLINK_JTAG_GetDeviceID(DeviceIndex = 1)  returns 0x6413041 (0000ms, 0859ms total)
T0C9C 000:897 JLINK_JTAG_GetDeviceInfo(DeviceIndex = 1)  returns 0x00 (0000ms, 0859ms total)
T0C9C 000:897 JLINK_GetDebugInfo(0x100) -- Value=0xE00FF003  returns 0x00 (0000ms, 0859ms total)
T0C9C 000:903 JLINK_ReadMem (0xE00FF000, 0x0018 Bytes, ...) -- CPU_ReadMem(24 bytes @ 0xE00FF000) -- Data:  03 F0 F0 FF 03 20 F0 FF 03 30 F0 FF 03 10 F0 FF ...  returns 0x00 (0001ms, 0859ms total)
T0C9C 000:904 JLINK_ReadMemU32(0xE000ED00, 0x0001 Items, ...) -- CPU_ReadMem(4 bytes @ 0xE000ED00) -- Data:  41 C2 0F 41  returns 0x01 (0001ms, 0860ms total)
T0C9C 000:906 JLINK_Halt()  returns 0x00 (0000ms, 0861ms total)
T0C9C 000:906 JLINK_IsHalted()  returns TRUE (0000ms, 0861ms total)
T0C9C 000:906 JLINK_ReadMemU32(0xE000EDF0, 0x0001 Items, ...) -- CPU_ReadMem(4 bytes @ 0xE000EDF0) -- Data:  03 00 03 00  returns 0x01 (0001ms, 0861ms total)
T0C9C 000:907 JLINK_WriteU32(0xE000EDF0, 0xA05F0003) -- CPU_WriteMem(4 bytes @ 0xE000EDF0)  returns 0x00 (0001ms, 0862ms total)
T0C9C 000:908 JLINK_WriteU32(0xE000EDFC, 0x01000000) -- CPU_WriteMem(4 bytes @ 0xE000EDFC)  returns 0x00 (0001ms, 0863ms total)
T0C9C 000:909 JLINK_ReadMemU32(0xE0002000, 0x0001 Items, ...) -- CPU_ReadMem(4 bytes @ 0xE0002000) -- Data:  60 02 00 00  returns 0x01 (0001ms, 0864ms total)
T0C9C 000:910 JLINK_ReadMemU32(0xE0001000, 0x0001 Items, ...) -- CPU_ReadMem(4 bytes @ 0xE0001000) -- Data:  00 00 00 40  returns 0x01 (0001ms, 0865ms total)
T0C9C 000:932 JLINK_ExecCommand("Device = STM32F407ZG", ...)  returns 0x00 (0000ms, 0866ms total)
T0C9C 000:932 JLINK_GetHWStatus(...)  returns 0x00 (0001ms, 0866ms total)
T0C9C 000:944 JLINK_GetNumBPUnits(Type = 0xFFFFFF00)  returns 0x06 (0000ms, 0867ms total)
T0C9C 000:944 JLINK_GetNumBPUnits(Type = 0xF0)  returns 0x2000 (0000ms, 0867ms total)
T0C9C 000:944 JLINK_GetNumWPUnits()  returns 0x04 (0000ms, 0867ms total)
T0C9C 000:952 JLINK_GetSpeed()  returns 0x12C0 (0000ms, 0867ms total)
T0C9C 000:958 JLINK_ReadMemU32(0xE000E004, 0x0001 Items, ...) -- CPU_ReadMem(4 bytes @ 0xE000E004) -- Data:  02 00 00 00  returns 0x01 (0001ms, 0867ms total)
T0C9C 000:959 JLINK_WriteMem(0xE0001000, 0x001C Bytes, ...) -- Data:  01 00 00 00 00 00 00 00 00 00 00 00 00 00 00 00 ... -- CPU_WriteMem(28 bytes @ 0xE0001000)  returns 0x1C (0001ms, 0868ms total)
T0C9C 000:960 JLINK_ReadMem (0xE0001000, 0x001C Bytes, ...) -- CPU_ReadMem(28 bytes @ 0xE0001000) -- Data:  01 00 00 40 00 00 00 00 00 00 00 00 00 00 00 00 ...  returns 0x00 (0001ms, 0869ms total)
T0C9C 000:961 JLINK_Halt()  returns 0x00 (0000ms, 0870ms total)
T0C9C 000:961 JLINK_IsHalted()  returns TRUE (0000ms, 0870ms total)
T0C9C 000:964 JLINK_WriteMem(0x20000000, 0x0180 Bytes, ...) -- Data:  00 BE 0A E0 0D 78 2D 06 68 40 08 24 40 00 00 D3 ... -- CPU_WriteMem(384 bytes @ 0x20000000)  returns 0x180 (0004ms, 0870ms total)
T0C9C 000:968 JLINK_WriteReg(R0, 0x08000000)  returns 0x00 (0000ms, 0874ms total)
T0C9C 000:968 JLINK_WriteReg(R1, 0x017D7840)  returns 0x00 (0000ms, 0874ms total)
T0C9C 000:968 JLINK_WriteReg(R2, 0x00000001)  returns 0x00 (0000ms, 0874ms total)
T0C9C 000:968 JLINK_WriteReg(R3, 0x00000000)  returns 0x00 (0000ms, 0874ms total)
T0C9C 000:968 JLINK_WriteReg(R4, 0x00000000)  returns 0x00 (0000ms, 0874ms total)
T0C9C 000:968 JLINK_WriteReg(R5, 0x00000000)  returns 0x00 (0000ms, 0874ms total)
T0C9C 000:968 JLINK_WriteReg(R6, 0x00000000)  returns 0x00 (0000ms, 0874ms total)
T0C9C 000:968 JLINK_WriteReg(R7, 0x00000000)  returns 0x00 (0000ms, 0874ms total)
T0C9C 000:968 JLINK_WriteReg(R8, 0x00000000)  returns 0x00 (0000ms, 0874ms total)
T0C9C 000:968 JLINK_WriteReg(R9, 0x2000017C)  returns 0x00 (0000ms, 0874ms total)
T0C9C 000:968 JLINK_WriteReg(R10, 0x00000000)  returns 0x00 (0000ms, 0874ms total)
T0C9C 000:968 JLINK_WriteReg(R11, 0x00000000)  returns 0x00 (0000ms, 0874ms total)
T0C9C 000:968 JLINK_WriteReg(R12, 0x00000000)  returns 0x00 (0000ms, 0874ms total)
T0C9C 000:968 JLINK_WriteReg(R13, 0x20000800)  returns 0x00 (0000ms, 0874ms total)
T0C9C 000:968 JLINK_WriteReg(R14, 0x20000001)  returns 0x00 (0000ms, 0874ms total)
T0C9C 000:968 JLINK_WriteReg(R15, 0x20000054)  returns 0x00 (0000ms, 0874ms total)
T0C9C 000:968 JLINK_WriteReg(XPSR, 0x01000000)  returns 0x00 (0000ms, 0874ms total)
T0C9C 000:968 JLINK_WriteReg(MSP, 0x20000800)  returns 0x00 (0000ms, 0874ms total)
T0C9C 000:969 JLINK_WriteReg(PSP, 0x20000800)  returns 0x00 (0000ms, 0875ms total)
T0C9C 000:969 JLINK_WriteReg(CFBP, 0x00000000)  returns 0x00 (0000ms, 0875ms total)
T0C9C 000:969 JLINK_SetBPEx(Addr = 0x20000000, Type = 0xFFFFFFF2) -- CPU_ReadMem(4 bytes @ 0x20000000) -- CPU_WriteMem(4 bytes @ 0x20000000) -- CPU_ReadMem(4 bytes @ 0x20000000) -- CPU_WriteMem(4 bytes @ 0x20000000) -- CPU_ReadMem(2 bytes @ 0x20000000)  returns 0x00000001 (0005ms, 0875ms total)
T0C9C 000:974 JLINK_Go() -- CPU_WriteMem(2 bytes @ 0x20000000) -- CPU_WriteMem(4 bytes @ 0xE0002008) -- CPU_WriteMem(4 bytes @ 0xE000200C) -- CPU_WriteMem(4 bytes @ 0xE0002010) -- CPU_WriteMem(4 bytes @ 0xE0002014) -- CPU_WriteMem(4 bytes @ 0xE0002018) -- CPU_WriteMem(4 bytes @ 0xE000201C) (0010ms, 0880ms total)
T0C9C 000:984 JLINK_IsHalted() -- CPU_ReadMem(2 bytes @ 0x20000000)  returns TRUE (0005ms, 0890ms total)
T0C9C 000:989 JLINK_ReadReg(R15)  returns 0x20000000 (0000ms, 0890ms total)
T0C9C 000:989 JLINK_ClrBPEx(BPHandle = 0x00000001)  returns 0x00 (0000ms, 0890ms total)
T0C9C 000:989 JLINK_ReadReg(R0)  returns 0x00000000 (0000ms, 0890ms total)
T0C9C 000:989 JLINK_WriteReg(R0, 0x08000000)  returns 0x00 (0000ms, 0890ms total)
T0C9C 000:989 JLINK_WriteReg(R1, 0x00004000)  returns 0x00 (0000ms, 0890ms total)
T0C9C 000:989 JLINK_WriteReg(R2, 0x000000FF)  returns 0x00 (0000ms, 0890ms total)
T0C9C 000:989 JLINK_WriteReg(R3, 0x00000000)  returns 0x00 (0000ms, 0890ms total)
T0C9C 000:989 JLINK_WriteReg(R4, 0x00000000)  returns 0x00 (0000ms, 0890ms total)
T0C9C 000:990 JLINK_WriteReg(R5, 0x00000000)  returns 0x00 (0000ms, 0891ms total)
T0C9C 000:990 JLINK_WriteReg(R6, 0x00000000)  returns 0x00 (0000ms, 0891ms total)
T0C9C 000:990 JLINK_WriteReg(R7, 0x00000000)  returns 0x00 (0000ms, 0891ms total)
T0C9C 000:990 JLINK_WriteReg(R8, 0x00000000)  returns 0x00 (0000ms, 0891ms total)
T0C9C 000:990 JLINK_WriteReg(R9, 0x2000017C)  returns 0x00 (0000ms, 0891ms total)
T0C9C 000:990 JLINK_WriteReg(R10, 0x00000000)  returns 0x00 (0000ms, 0891ms total)
T0C9C 000:990 JLINK_WriteReg(R11, 0x00000000)  returns 0x00 (0000ms, 0891ms total)
T0C9C 000:990 JLINK_WriteReg(R12, 0x00000000)  returns 0x00 (0000ms, 0891ms total)
T0C9C 000:990 JLINK_WriteReg(R13, 0x20000800)  returns 0x00 (0000ms, 0891ms total)
T0C9C 000:990 JLINK_WriteReg(R14, 0x20000001)  returns 0x00 (0000ms, 0891ms total)
T0C9C 000:990 JLINK_WriteReg(R15, 0x20000020)  returns 0x00 (0000ms, 0891ms total)
T0C9C 000:990 JLINK_WriteReg(XPSR, 0x01000000)  returns 0x00 (0000ms, 0891ms total)
T0C9C 000:990 JLINK_WriteReg(MSP, 0x20000800)  returns 0x00 (0000ms, 0891ms total)
T0C9C 000:990 JLINK_WriteReg(PSP, 0x20000800)  returns 0x00 (0000ms, 0891ms total)
T0C9C 000:990 JLINK_WriteReg(CFBP, 0x00000000)  returns 0x00 (0000ms, 0891ms total)
T0C9C 000:990 JLINK_SetBPEx(Addr = 0x20000000, Type = 0xFFFFFFF2)  returns 0x00000002 (0000ms, 0891ms total)
T0C9C 000:990 JLINK_Go() -- CPU_WriteMem(4 bytes @ 0xE0002008) -- CPU_WriteMem(4 bytes @ 0xE000200C) -- CPU_WriteMem(4 bytes @ 0xE0002010) -- CPU_WriteMem(4 bytes @ 0xE0002014) -- CPU_WriteMem(4 bytes @ 0xE0002018) -- CPU_WriteMem(4 bytes @ 0xE000201C) (0008ms, 0891ms total)
T0C9C 000:998 JLINK_IsHalted() -- CPU_ReadMem(2 bytes @ 0x20000000)  returns TRUE (0005ms, 0899ms total)
T0C9C 001:003 JLINK_ReadReg(R15)  returns 0x20000000 (0001ms, 0899ms total)
T0C9C 001:004 JLINK_ClrBPEx(BPHandle = 0x00000002)  returns 0x00 (0000ms, 0900ms total)
T0C9C 001:004 JLINK_ReadReg(R0)  returns 0x00000001 (0000ms, 0900ms total)
T0C9C 001:004 JLINK_WriteReg(R0, 0x08000000)  returns 0x00 (0000ms, 0900ms total)
T0C9C 001:004 JLINK_WriteReg(R1, 0x00004000)  returns 0x00 (0000ms, 0900ms total)
T0C9C 001:004 JLINK_WriteReg(R2, 0x000000FF)  returns 0x00 (0000ms, 0900ms total)
T0C9C 001:004 JLINK_WriteReg(R3, 0x00000000)  returns 0x00 (0000ms, 0900ms total)
T0C9C 001:004 JLINK_WriteReg(R4, 0x00000000)  returns 0x00 (0000ms, 0900ms total)
T0C9C 001:004 JLINK_WriteReg(R5, 0x00000000)  returns 0x00 (0000ms, 0900ms total)
T0C9C 001:004 JLINK_WriteReg(R6, 0x00000000)  returns 0x00 (0000ms, 0900ms total)
T0C9C 001:004 JLINK_WriteReg(R7, 0x00000000)  returns 0x00 (0000ms, 0900ms total)
T0C9C 001:004 JLINK_WriteReg(R8, 0x00000000)  returns 0x00 (0000ms, 0900ms total)
T0C9C 001:004 JLINK_WriteReg(R9, 0x2000017C)  returns 0x00 (0000ms, 0900ms total)
T0C9C 001:004 JLINK_WriteReg(R10, 0x00000000)  returns 0x00 (0000ms, 0900ms total)
T0C9C 001:004 JLINK_WriteReg(R11, 0x00000000)  returns 0x00 (0000ms, 0900ms total)
T0C9C 001:004 JLINK_WriteReg(R12, 0x00000000)  returns 0x00 (0000ms, 0900ms total)
T0C9C 001:005 JLINK_WriteReg(R13, 0x20000800)  returns 0x00 (0000ms, 0901ms total)
T0C9C 001:005 JLINK_WriteReg(R14, 0x20000001)  returns 0x00 (0000ms, 0901ms total)
T0C9C 001:005 JLINK_WriteReg(R15, 0x200000BC)  returns 0x00 (0000ms, 0901ms total)
T0C9C 001:005 JLINK_WriteReg(XPSR, 0x01000000)  returns 0x00 (0000ms, 0901ms total)
T0C9C 001:005 JLINK_WriteReg(MSP, 0x20000800)  returns 0x00 (0000ms, 0901ms total)
T0C9C 001:005 JLINK_WriteReg(PSP, 0x20000800)  returns 0x00 (0000ms, 0901ms total)
T0C9C 001:005 JLINK_WriteReg(CFBP, 0x00000000)  returns 0x00 (0000ms, 0901ms total)
T0C9C 001:005 JLINK_SetBPEx(Addr = 0x20000000, Type = 0xFFFFFFF2)  returns 0x00000003 (0000ms, 0901ms total)
T0C9C 001:005 JLINK_Go() -- CPU_WriteMem(4 bytes @ 0xE0002008) -- CPU_WriteMem(4 bytes @ 0xE000200C) -- CPU_WriteMem(4 bytes @ 0xE0002010) -- CPU_WriteMem(4 bytes @ 0xE0002014) -- CPU_WriteMem(4 bytes @ 0xE0002018) -- CPU_WriteMem(4 bytes @ 0xE000201C) (0008ms, 0901ms total)
T0C9C 001:013 JLINK_IsHalted()  returns FALSE (0001ms, 0909ms total)
T0C9C 001:064 JLINK_IsHalted()  returns FALSE (0001ms, 0909ms total)
T0C9C 001:115 JLINK_IsHalted()  returns FALSE (0001ms, 0909ms total)
T0C9C 001:166 JLINK_IsHalted()  returns FALSE (0008ms, 0909ms total)
T0C9C 001:224 JLINK_IsHalted()  returns FALSE (0001ms, 0909ms total)
T0C9C 001:275 JLINK_IsHalted()  returns FALSE (0001ms, 0909ms total)
T0C9C 001:326 JLINK_IsHalted()  returns FALSE (0001ms, 0909ms total)
T0C9C 001:377 JLINK_IsHalted()  returns FALSE (0001ms, 0909ms total)
T0C9C 001:428 JLINK_IsHalted() -- CPU_ReadMem(2 bytes @ 0x20000000)  returns TRUE (0005ms, 0909ms total)
T0C9C 001:433 JLINK_ReadReg(R15)  returns 0x20000000 (0000ms, 0909ms total)
T0C9C 001:433 JLINK_ClrBPEx(BPHandle = 0x00000003)  returns 0x00 (0000ms, 0909ms total)
T0C9C 001:433 JLINK_ReadReg(R0)  returns 0x00000000 (0000ms, 0909ms total)
T0C9C 001:433 JLINK_WriteReg(R0, 0x08004000)  returns 0x00 (0000ms, 0909ms total)
T0C9C 001:433 JLINK_WriteReg(R1, 0x00004000)  returns 0x00 (0000ms, 0909ms total)
T0C9C 001:433 JLINK_WriteReg(R2, 0x000000FF)  returns 0x00 (0000ms, 0909ms total)
T0C9C 001:433 JLINK_WriteReg(R3, 0x00000000)  returns 0x00 (0000ms, 0909ms total)
T0C9C 001:433 JLINK_WriteReg(R4, 0x00000000)  returns 0x00 (0000ms, 0909ms total)
T0C9C 001:433 JLINK_WriteReg(R5, 0x00000000)  returns 0x00 (0000ms, 0909ms total)
T0C9C 001:433 JLINK_WriteReg(R6, 0x00000000)  returns 0x00 (0001ms, 0909ms total)
T0C9C 001:434 JLINK_WriteReg(R7, 0x00000000)  returns 0x00 (0000ms, 0910ms total)
T0C9C 001:434 JLINK_WriteReg(R8, 0x00000000)  returns 0x00 (0000ms, 0910ms total)
T0C9C 001:434 JLINK_WriteReg(R9, 0x2000017C)  returns 0x00 (0000ms, 0910ms total)
T0C9C 001:434 JLINK_WriteReg(R10, 0x00000000)  returns 0x00 (0000ms, 0910ms total)
T0C9C 001:434 JLINK_WriteReg(R11, 0x00000000)  returns 0x00 (0000ms, 0910ms total)
T0C9C 001:434 JLINK_WriteReg(R12, 0x00000000)  returns 0x00 (0000ms, 0910ms total)
T0C9C 001:434 JLINK_WriteReg(R13, 0x20000800)  returns 0x00 (0000ms, 0910ms total)
T0C9C 001:434 JLINK_WriteReg(R14, 0x20000001)  returns 0x00 (0000ms, 0910ms total)
T0C9C 001:434 JLINK_WriteReg(R15, 0x20000020)  returns 0x00 (0000ms, 0910ms total)
T0C9C 001:434 JLINK_WriteReg(XPSR, 0x01000000)  returns 0x00 (0000ms, 0910ms total)
T0C9C 001:434 JLINK_WriteReg(MSP, 0x20000800)  returns 0x00 (0000ms, 0910ms total)
T0C9C 001:434 JLINK_WriteReg(PSP, 0x20000800)  returns 0x00 (0000ms, 0910ms total)
T0C9C 001:434 JLINK_WriteReg(CFBP, 0x00000000)  returns 0x00 (0001ms, 0910ms total)
T0C9C 001:435 JLINK_SetBPEx(Addr = 0x20000000, Type = 0xFFFFFFF2)  returns 0x00000004 (0000ms, 0911ms total)
T0C9C 001:435 JLINK_Go() -- CPU_WriteMem(4 bytes @ 0xE0002008) -- CPU_WriteMem(4 bytes @ 0xE000200C) -- CPU_WriteMem(4 bytes @ 0xE0002010) -- CPU_WriteMem(4 bytes @ 0xE0002014) -- CPU_WriteMem(4 bytes @ 0xE0002018) -- CPU_WriteMem(4 bytes @ 0xE000201C) (0008ms, 0911ms total)
T0C9C 001:443 JLINK_IsHalted() -- CPU_ReadMem(2 bytes @ 0x20000000)  returns TRUE (0005ms, 0919ms total)
T0C9C 001:448 JLINK_ReadReg(R15)  returns 0x20000000 (0000ms, 0919ms total)
T0C9C 001:448 JLINK_ClrBPEx(BPHandle = 0x00000004)  returns 0x00 (0000ms, 0919ms total)
T0C9C 001:448 JLINK_ReadReg(R0)  returns 0x00000001 (0000ms, 0919ms total)
T0C9C 001:448 JLINK_WriteReg(R0, 0x08004000)  returns 0x00 (0000ms, 0919ms total)
T0C9C 001:448 JLINK_WriteReg(R1, 0x00004000)  returns 0x00 (0000ms, 0919ms total)
T0C9C 001:448 JLINK_WriteReg(R2, 0x000000FF)  returns 0x00 (0000ms, 0919ms total)
T0C9C 001:448 JLINK_WriteReg(R3, 0x00000000)  returns 0x00 (0000ms, 0919ms total)
T0C9C 001:448 JLINK_WriteReg(R4, 0x00000000)  returns 0x00 (0000ms, 0919ms total)
T0C9C 001:449 JLINK_WriteReg(R5, 0x00000000)  returns 0x00 (0000ms, 0920ms total)
T0C9C 001:449 JLINK_WriteReg(R6, 0x00000000)  returns 0x00 (0000ms, 0920ms total)
T0C9C 001:449 JLINK_WriteReg(R7, 0x00000000)  returns 0x00 (0000ms, 0920ms total)
T0C9C 001:449 JLINK_WriteReg(R8, 0x00000000)  returns 0x00 (0000ms, 0920ms total)
T0C9C 001:449 JLINK_WriteReg(R9, 0x2000017C)  returns 0x00 (0000ms, 0920ms total)
T0C9C 001:449 JLINK_WriteReg(R10, 0x00000000)  returns 0x00 (0000ms, 0920ms total)
T0C9C 001:449 JLINK_WriteReg(R11, 0x00000000)  returns 0x00 (0000ms, 0920ms total)
T0C9C 001:449 JLINK_WriteReg(R12, 0x00000000)  returns 0x00 (0000ms, 0920ms total)
T0C9C 001:449 JLINK_WriteReg(R13, 0x20000800)  returns 0x00 (0000ms, 0920ms total)
T0C9C 001:449 JLINK_WriteReg(R14, 0x20000001)  returns 0x00 (0000ms, 0920ms total)
T0C9C 001:449 JLINK_WriteReg(R15, 0x200000BC)  returns 0x00 (0000ms, 0920ms total)
T0C9C 001:449 JLINK_WriteReg(XPSR, 0x01000000)  returns 0x00 (0000ms, 0920ms total)
T0C9C 001:449 JLINK_WriteReg(MSP, 0x20000800)  returns 0x00 (0000ms, 0920ms total)
T0C9C 001:449 JLINK_WriteReg(PSP, 0x20000800)  returns 0x00 (0000ms, 0920ms total)
T0C9C 001:449 JLINK_WriteReg(CFBP, 0x00000000)  returns 0x00 (0000ms, 0920ms total)
T0C9C 001:450 JLINK_SetBPEx(Addr = 0x20000000, Type = 0xFFFFFFF2)  returns 0x00000005 (0000ms, 0921ms total)
T0C9C 001:450 JLINK_Go() -- CPU_WriteMem(4 bytes @ 0xE0002008) -- CPU_WriteMem(4 bytes @ 0xE000200C) -- CPU_WriteMem(4 bytes @ 0xE0002010) -- CPU_WriteMem(4 bytes @ 0xE0002014) -- CPU_WriteMem(4 bytes @ 0xE0002018) -- CPU_WriteMem(4 bytes @ 0xE000201C) (0008ms, 0921ms total)
T0C9C 001:458 JLINK_IsHalted()  returns FALSE (0001ms, 0929ms total)
T0C9C 001:509 JLINK_IsHalted()  returns FALSE (0001ms, 0929ms total)
T0C9C 001:560 JLINK_IsHalted()  returns FALSE (0001ms, 0929ms total)
T0C9C 001:611 JLINK_IsHalted()  returns FALSE (0001ms, 0929ms total)
T0C9C 001:662 JLINK_IsHalted()  returns FALSE (0001ms, 0929ms total)
T0C9C 001:713 JLINK_IsHalted()  returns FALSE (0001ms, 0929ms total)
T0C9C 001:764 JLINK_IsHalted()  returns FALSE (0001ms, 0929ms total)
T0C9C 001:815 JLINK_IsHalted()  returns FALSE (0001ms, 0929ms total)
T0C9C 001:866 JLINK_IsHalted() -- CPU_ReadMem(2 bytes @ 0x20000000)  returns TRUE (0005ms, 0929ms total)
T0C9C 001:871 JLINK_ReadReg(R15)  returns 0x20000000 (0000ms, 0929ms total)
T0C9C 001:871 JLINK_ClrBPEx(BPHandle = 0x00000005)  returns 0x00 (0000ms, 0929ms total)
T0C9C 001:871 JLINK_ReadReg(R0)  returns 0x00000000 (0000ms, 0929ms total)
T0C9C 001:871 JLINK_WriteReg(R0, 0x08008000)  returns 0x00 (0000ms, 0929ms total)
T0C9C 001:871 JLINK_WriteReg(R1, 0x00004000)  returns 0x00 (0000ms, 0929ms total)
T0C9C 001:871 JLINK_WriteReg(R2, 0x000000FF)  returns 0x00 (0000ms, 0929ms total)
T0C9C 001:871 JLINK_WriteReg(R3, 0x00000000)  returns 0x00 (0000ms, 0929ms total)
T0C9C 001:871 JLINK_WriteReg(R4, 0x00000000)  returns 0x00 (0000ms, 0929ms total)
T0C9C 001:871 JLINK_WriteReg(R5, 0x00000000)  returns 0x00 (0000ms, 0929ms total)
T0C9C 001:872 JLINK_WriteReg(R6, 0x00000000)  returns 0x00 (0000ms, 0930ms total)
T0C9C 001:872 JLINK_WriteReg(R7, 0x00000000)  returns 0x00 (0000ms, 0930ms total)
T0C9C 001:872 JLINK_WriteReg(R8, 0x00000000)  returns 0x00 (0000ms, 0930ms total)
T0C9C 001:872 JLINK_WriteReg(R9, 0x2000017C)  returns 0x00 (0000ms, 0930ms total)
T0C9C 001:872 JLINK_WriteReg(R10, 0x00000000)  returns 0x00 (0000ms, 0930ms total)
T0C9C 001:872 JLINK_WriteReg(R11, 0x00000000)  returns 0x00 (0000ms, 0930ms total)
T0C9C 001:872 JLINK_WriteReg(R12, 0x00000000)  returns 0x00 (0000ms, 0930ms total)
T0C9C 001:872 JLINK_WriteReg(R13, 0x20000800)  returns 0x00 (0000ms, 0930ms total)
T0C9C 001:872 JLINK_WriteReg(R14, 0x20000001)  returns 0x00 (0000ms, 0930ms total)
T0C9C 001:872 JLINK_WriteReg(R15, 0x20000020)  returns 0x00 (0000ms, 0930ms total)
T0C9C 001:872 JLINK_WriteReg(XPSR, 0x01000000)  returns 0x00 (0000ms, 0930ms total)
T0C9C 001:872 JLINK_WriteReg(MSP, 0x20000800)  returns 0x00 (0000ms, 0930ms total)
T0C9C 001:872 JLINK_WriteReg(PSP, 0x20000800)  returns 0x00 (0000ms, 0930ms total)
T0C9C 001:872 JLINK_WriteReg(CFBP, 0x00000000)  returns 0x00 (0000ms, 0930ms total)
T0C9C 001:872 JLINK_SetBPEx(Addr = 0x20000000, Type = 0xFFFFFFF2)  returns 0x00000006 (0000ms, 0930ms total)
T0C9C 001:872 JLINK_Go() -- CPU_WriteMem(4 bytes @ 0xE0002008) -- CPU_WriteMem(4 bytes @ 0xE000200C) -- CPU_WriteMem(4 bytes @ 0xE0002010) -- CPU_WriteMem(4 bytes @ 0xE0002014) -- CPU_WriteMem(4 bytes @ 0xE0002018) -- CPU_WriteMem(4 bytes @ 0xE000201C) (0009ms, 0930ms total)
T0C9C 001:881 JLINK_IsHalted() -- CPU_ReadMem(2 bytes @ 0x20000000)  returns TRUE (0005ms, 0939ms total)
T0C9C 001:886 JLINK_ReadReg(R15)  returns 0x20000000 (0000ms, 0939ms total)
T0C9C 001:886 JLINK_ClrBPEx(BPHandle = 0x00000006)  returns 0x00 (0000ms, 0939ms total)
T0C9C 001:886 JLINK_ReadReg(R0)  returns 0x00000001 (0000ms, 0939ms total)
T0C9C 001:886 JLINK_WriteReg(R0, 0x08008000)  returns 0x00 (0000ms, 0939ms total)
T0C9C 001:886 JLINK_WriteReg(R1, 0x00004000)  returns 0x00 (0000ms, 0939ms total)
T0C9C 001:886 JLINK_WriteReg(R2, 0x000000FF)  returns 0x00 (0000ms, 0939ms total)
T0C9C 001:886 JLINK_WriteReg(R3, 0x00000000)  returns 0x00 (0000ms, 0939ms total)
T0C9C 001:886 JLINK_WriteReg(R4, 0x00000000)  returns 0x00 (0000ms, 0939ms total)
T0C9C 001:886 JLINK_WriteReg(R5, 0x00000000)  returns 0x00 (0000ms, 0939ms total)
T0C9C 001:886 JLINK_WriteReg(R6, 0x00000000)  returns 0x00 (0000ms, 0939ms total)
T0C9C 001:886 JLINK_WriteReg(R7, 0x00000000)  returns 0x00 (0001ms, 0939ms total)
T0C9C 001:887 JLINK_WriteReg(R8, 0x00000000)  returns 0x00 (0000ms, 0940ms total)
T0C9C 001:887 JLINK_WriteReg(R9, 0x2000017C)  returns 0x00 (0000ms, 0940ms total)
T0C9C 001:887 JLINK_WriteReg(R10, 0x00000000)  returns 0x00 (0000ms, 0940ms total)
T0C9C 001:887 JLINK_WriteReg(R11, 0x00000000)  returns 0x00 (0000ms, 0940ms total)
T0C9C 001:887 JLINK_WriteReg(R12, 0x00000000)  returns 0x00 (0000ms, 0940ms total)
T0C9C 001:887 JLINK_WriteReg(R13, 0x20000800)  returns 0x00 (0000ms, 0940ms total)
T0C9C 001:887 JLINK_WriteReg(R14, 0x20000001)  returns 0x00 (0000ms, 0940ms total)
T0C9C 001:887 JLINK_WriteReg(R15, 0x200000BC)  returns 0x00 (0000ms, 0940ms total)
T0C9C 001:887 JLINK_WriteReg(XPSR, 0x01000000)  returns 0x00 (0000ms, 0940ms total)
T0C9C 001:887 JLINK_WriteReg(MSP, 0x20000800)  returns 0x00 (0000ms, 0940ms total)
T0C9C 001:887 JLINK_WriteReg(PSP, 0x20000800)  returns 0x00 (0000ms, 0940ms total)
T0C9C 001:887 JLINK_WriteReg(CFBP, 0x00000000)  returns 0x00 (0000ms, 0940ms total)
T0C9C 001:887 JLINK_SetBPEx(Addr = 0x20000000, Type = 0xFFFFFFF2)  returns 0x00000007 (0000ms, 0940ms total)
T0C9C 001:887 JLINK_Go() -- CPU_WriteMem(4 bytes @ 0xE0002008) -- CPU_WriteMem(4 bytes @ 0xE000200C) -- CPU_WriteMem(4 bytes @ 0xE0002010) -- CPU_WriteMem(4 bytes @ 0xE0002014) -- CPU_WriteMem(4 bytes @ 0xE0002018) -- CPU_WriteMem(4 bytes @ 0xE000201C) (0009ms, 0940ms total)
T0C9C 001:896 JLINK_IsHalted()  returns FALSE (0001ms, 0949ms total)
T0C9C 001:947 JLINK_IsHalted()  returns FALSE (0001ms, 0949ms total)
T0C9C 001:998 JLINK_IsHalted()  returns FALSE (0001ms, 0949ms total)
T0C9C 002:049 JLINK_IsHalted()  returns FALSE (0002ms, 0949ms total)
T0C9C 002:101 JLINK_IsHalted()  returns FALSE (0001ms, 0949ms total)
T0C9C 002:152 JLINK_IsHalted()  returns FALSE (0001ms, 0949ms total)
T0C9C 002:203 JLINK_IsHalted()  returns FALSE (0001ms, 0949ms total)
T0C9C 002:254 JLINK_IsHalted()  returns FALSE (0001ms, 0949ms total)
T0C9C 002:305 JLINK_IsHalted() -- CPU_ReadMem(2 bytes @ 0x20000000)  returns TRUE (0005ms, 0949ms total)
T0C9C 002:310 JLINK_ReadReg(R15)  returns 0x20000000 (0000ms, 0949ms total)
T0C9C 002:310 JLINK_ClrBPEx(BPHandle = 0x00000007)  returns 0x00 (0000ms, 0949ms total)
T0C9C 002:310 JLINK_ReadReg(R0)  returns 0x00000000 (0000ms, 0949ms total)
T0C9C 002:310 JLINK_WriteReg(R0, 0x0800C000)  returns 0x00 (0000ms, 0949ms total)
T0C9C 002:310 JLINK_WriteReg(R1, 0x00004000)  returns 0x00 (0000ms, 0949ms total)
T0C9C 002:310 JLINK_WriteReg(R2, 0x000000FF)  returns 0x00 (0000ms, 0949ms total)
T0C9C 002:310 JLINK_WriteReg(R3, 0x00000000)  returns 0x00 (0000ms, 0949ms total)
T0C9C 002:310 JLINK_WriteReg(R4, 0x00000000)  returns 0x00 (0000ms, 0949ms total)
T0C9C 002:311 JLINK_WriteReg(R5, 0x00000000)  returns 0x00 (0000ms, 0950ms total)
T0C9C 002:311 JLINK_WriteReg(R6, 0x00000000)  returns 0x00 (0000ms, 0950ms total)
T0C9C 002:311 JLINK_WriteReg(R7, 0x00000000)  returns 0x00 (0000ms, 0950ms total)
T0C9C 002:311 JLINK_WriteReg(R8, 0x00000000)  returns 0x00 (0000ms, 0950ms total)
T0C9C 002:311 JLINK_WriteReg(R9, 0x2000017C)  returns 0x00 (0000ms, 0950ms total)
T0C9C 002:311 JLINK_WriteReg(R10, 0x00000000)  returns 0x00 (0000ms, 0950ms total)
T0C9C 002:311 JLINK_WriteReg(R11, 0x00000000)  returns 0x00 (0000ms, 0950ms total)
T0C9C 002:311 JLINK_WriteReg(R12, 0x00000000)  returns 0x00 (0000ms, 0950ms total)
T0C9C 002:311 JLINK_WriteReg(R13, 0x20000800)  returns 0x00 (0000ms, 0950ms total)
T0C9C 002:311 JLINK_WriteReg(R14, 0x20000001)  returns 0x00 (0000ms, 0950ms total)
T0C9C 002:311 JLINK_WriteReg(R15, 0x20000020)  returns 0x00 (0000ms, 0950ms total)
T0C9C 002:311 JLINK_WriteReg(XPSR, 0x01000000)  returns 0x00 (0000ms, 0950ms total)
T0C9C 002:311 JLINK_WriteReg(MSP, 0x20000800)  returns 0x00 (0000ms, 0950ms total)
T0C9C 002:311 JLINK_WriteReg(PSP, 0x20000800)  returns 0x00 (0000ms, 0950ms total)
T0C9C 002:311 JLINK_WriteReg(CFBP, 0x00000000)  returns 0x00 (0000ms, 0950ms total)
T0C9C 002:311 JLINK_SetBPEx(Addr = 0x20000000, Type = 0xFFFFFFF2)  returns 0x00000008 (0001ms, 0950ms total)
T0C9C 002:312 JLINK_Go() -- CPU_WriteMem(4 bytes @ 0xE0002008) -- CPU_WriteMem(4 bytes @ 0xE000200C) -- CPU_WriteMem(4 bytes @ 0xE0002010) -- CPU_WriteMem(4 bytes @ 0xE0002014) -- CPU_WriteMem(4 bytes @ 0xE0002018) -- CPU_WriteMem(4 bytes @ 0xE000201C) (0008ms, 0951ms total)
T0C9C 002:320 JLINK_IsHalted() -- CPU_ReadMem(2 bytes @ 0x20000000)  returns TRUE (0005ms, 0959ms total)
T0C9C 002:325 JLINK_ReadReg(R15)  returns 0x20000000 (0000ms, 0959ms total)
T0C9C 002:325 JLINK_ClrBPEx(BPHandle = 0x00000008)  returns 0x00 (0000ms, 0959ms total)
T0C9C 002:325 JLINK_ReadReg(R0)  returns 0x00000001 (0000ms, 0959ms total)
T0C9C 002:325 JLINK_WriteReg(R0, 0x0800C000)  returns 0x00 (0000ms, 0959ms total)
T0C9C 002:325 JLINK_WriteReg(R1, 0x00004000)  returns 0x00 (0000ms, 0959ms total)
T0C9C 002:325 JLINK_WriteReg(R2, 0x000000FF)  returns 0x00 (0000ms, 0959ms total)
T0C9C 002:325 JLINK_WriteReg(R3, 0x00000000)  returns 0x00 (0000ms, 0959ms total)
T0C9C 002:325 JLINK_WriteReg(R4, 0x00000000)  returns 0x00 (0000ms, 0959ms total)
T0C9C 002:325 JLINK_WriteReg(R5, 0x00000000)  returns 0x00 (0000ms, 0959ms total)
T0C9C 002:325 JLINK_WriteReg(R6, 0x00000000)  returns 0x00 (0001ms, 0959ms total)
T0C9C 002:326 JLINK_WriteReg(R7, 0x00000000)  returns 0x00 (0000ms, 0960ms total)
T0C9C 002:326 JLINK_WriteReg(R8, 0x00000000)  returns 0x00 (0000ms, 0960ms total)
T0C9C 002:326 JLINK_WriteReg(R9, 0x2000017C)  returns 0x00 (0000ms, 0960ms total)
T0C9C 002:326 JLINK_WriteReg(R10, 0x00000000)  returns 0x00 (0000ms, 0960ms total)
T0C9C 002:326 JLINK_WriteReg(R11, 0x00000000)  returns 0x00 (0000ms, 0960ms total)
T0C9C 002:326 JLINK_WriteReg(R12, 0x00000000)  returns 0x00 (0000ms, 0960ms total)
T0C9C 002:326 JLINK_WriteReg(R13, 0x20000800)  returns 0x00 (0000ms, 0960ms total)
T0C9C 002:326 JLINK_WriteReg(R14, 0x20000001)  returns 0x00 (0000ms, 0960ms total)
T0C9C 002:326 JLINK_WriteReg(R15, 0x200000BC)  returns 0x00 (0000ms, 0960ms total)
T0C9C 002:326 JLINK_WriteReg(XPSR, 0x01000000)  returns 0x00 (0000ms, 0960ms total)
T0C9C 002:326 JLINK_WriteReg(MSP, 0x20000800)  returns 0x00 (0000ms, 0960ms total)
T0C9C 002:326 JLINK_WriteReg(PSP, 0x20000800)  returns 0x00 (0000ms, 0960ms total)
T0C9C 002:326 JLINK_WriteReg(CFBP, 0x00000000)  returns 0x00 (0000ms, 0960ms total)
T0C9C 002:326 JLINK_SetBPEx(Addr = 0x20000000, Type = 0xFFFFFFF2)  returns 0x00000009 (0000ms, 0960ms total)
T0C9C 002:326 JLINK_Go() -- CPU_WriteMem(4 bytes @ 0xE0002008) -- CPU_WriteMem(4 bytes @ 0xE000200C) -- CPU_WriteMem(4 bytes @ 0xE0002010) -- CPU_WriteMem(4 bytes @ 0xE0002014) -- CPU_WriteMem(4 bytes @ 0xE0002018) -- CPU_WriteMem(4 bytes @ 0xE000201C) (0009ms, 0960ms total)
T0C9C 002:335 JLINK_IsHalted()  returns FALSE (0001ms, 0969ms total)
T0C9C 002:386 JLINK_IsHalted()  returns FALSE (0001ms, 0969ms total)
T0C9C 002:437 JLINK_IsHalted()  returns FALSE (0001ms, 0969ms total)
T0C9C 002:488 JLINK_IsHalted()  returns FALSE (0001ms, 0969ms total)
T0C9C 002:539 JLINK_IsHalted()  returns FALSE (0001ms, 0969ms total)
T0C9C 002:590 JLINK_IsHalted()  returns FALSE (0001ms, 0969ms total)
T0C9C 002:641 JLINK_IsHalted()  returns FALSE (0001ms, 0969ms total)
T0C9C 002:692 JLINK_IsHalted()  returns FALSE (0001ms, 0969ms total)
T0C9C 002:743 JLINK_IsHalted() -- CPU_ReadMem(2 bytes @ 0x20000000)  returns TRUE (0005ms, 0969ms total)
T0C9C 002:748 JLINK_ReadReg(R15)  returns 0x20000000 (0000ms, 0969ms total)
T0C9C 002:748 JLINK_ClrBPEx(BPHandle = 0x00000009)  returns 0x00 (0000ms, 0969ms total)
T0C9C 002:748 JLINK_ReadReg(R0)  returns 0x00000000 (0000ms, 0969ms total)
T0C9C 002:748 JLINK_WriteReg(R0, 0x08010000)  returns 0x00 (0000ms, 0969ms total)
T0C9C 002:748 JLINK_WriteReg(R1, 0x00010000)  returns 0x00 (0000ms, 0969ms total)
T0C9C 002:748 JLINK_WriteReg(R2, 0x000000FF)  returns 0x00 (0000ms, 0969ms total)
T0C9C 002:748 JLINK_WriteReg(R3, 0x00000000)  returns 0x00 (0000ms, 0969ms total)
T0C9C 002:748 JLINK_WriteReg(R4, 0x00000000)  returns 0x00 (0000ms, 0969ms total)
T0C9C 002:748 JLINK_WriteReg(R5, 0x00000000)  returns 0x00 (0001ms, 0969ms total)
T0C9C 002:749 JLINK_WriteReg(R6, 0x00000000)  returns 0x00 (0000ms, 0970ms total)
T0C9C 002:749 JLINK_WriteReg(R7, 0x00000000)  returns 0x00 (0000ms, 0970ms total)
T0C9C 002:749 JLINK_WriteReg(R8, 0x00000000)  returns 0x00 (0000ms, 0970ms total)
T0C9C 002:749 JLINK_WriteReg(R9, 0x2000017C)  returns 0x00 (0000ms, 0970ms total)
T0C9C 002:749 JLINK_WriteReg(R10, 0x00000000)  returns 0x00 (0000ms, 0970ms total)
T0C9C 002:749 JLINK_WriteReg(R11, 0x00000000)  returns 0x00 (0000ms, 0970ms total)
T0C9C 002:749 JLINK_WriteReg(R12, 0x00000000)  returns 0x00 (0000ms, 0970ms total)
T0C9C 002:749 JLINK_WriteReg(R13, 0x20000800)  returns 0x00 (0000ms, 0970ms total)
T0C9C 002:749 JLINK_WriteReg(R14, 0x20000001)  returns 0x00 (0000ms, 0970ms total)
T0C9C 002:749 JLINK_WriteReg(R15, 0x20000020)  returns 0x00 (0000ms, 0970ms total)
T0C9C 002:749 JLINK_WriteReg(XPSR, 0x01000000)  returns 0x00 (0000ms, 0970ms total)
T0C9C 002:749 JLINK_WriteReg(MSP, 0x20000800)  returns 0x00 (0000ms, 0970ms total)
T0C9C 002:749 JLINK_WriteReg(PSP, 0x20000800)  returns 0x00 (0000ms, 0970ms total)
T0C9C 002:750 JLINK_WriteReg(CFBP, 0x00000000)  returns 0x00 (0000ms, 0971ms total)
T0C9C 002:750 JLINK_SetBPEx(Addr = 0x20000000, Type = 0xFFFFFFF2)  returns 0x0000000A (0000ms, 0971ms total)
T0C9C 002:750 JLINK_Go() -- CPU_WriteMem(4 bytes @ 0xE0002008) -- CPU_WriteMem(4 bytes @ 0xE000200C) -- CPU_WriteMem(4 bytes @ 0xE0002010) -- CPU_WriteMem(4 bytes @ 0xE0002014) -- CPU_WriteMem(4 bytes @ 0xE0002018) -- CPU_WriteMem(4 bytes @ 0xE000201C) (0008ms, 0971ms total)
T0C9C 002:758 JLINK_IsHalted() -- CPU_ReadMem(2 bytes @ 0x20000000)  returns TRUE (0005ms, 0979ms total)
T0C9C 002:763 JLINK_ReadReg(R15)  returns 0x20000000 (0000ms, 0979ms total)
T0C9C 002:763 JLINK_ClrBPEx(BPHandle = 0x0000000A)  returns 0x00 (0000ms, 0979ms total)
T0C9C 002:763 JLINK_ReadReg(R0)  returns 0x00000001 (0000ms, 0979ms total)
T0C9C 002:763 JLINK_WriteReg(R0, 0x08010000)  returns 0x00 (0000ms, 0979ms total)
T0C9C 002:763 JLINK_WriteReg(R1, 0x00010000)  returns 0x00 (0000ms, 0979ms total)
T0C9C 002:763 JLINK_WriteReg(R2, 0x000000FF)  returns 0x00 (0000ms, 0979ms total)
T0C9C 002:763 JLINK_WriteReg(R3, 0x00000000)  returns 0x00 (0000ms, 0979ms total)
T0C9C 002:763 JLINK_WriteReg(R4, 0x00000000)  returns 0x00 (0000ms, 0979ms total)
T0C9C 002:763 JLINK_WriteReg(R5, 0x00000000)  returns 0x00 (0000ms, 0979ms total)
T0C9C 002:763 JLINK_WriteReg(R6, 0x00000000)  returns 0x00 (0000ms, 0979ms total)
T0C9C 002:764 JLINK_WriteReg(R7, 0x00000000)  returns 0x00 (0000ms, 0980ms total)
T0C9C 002:764 JLINK_WriteReg(R8, 0x00000000)  returns 0x00 (0000ms, 0980ms total)
T0C9C 002:764 JLINK_WriteReg(R9, 0x2000017C)  returns 0x00 (0000ms, 0980ms total)
T0C9C 002:764 JLINK_WriteReg(R10, 0x00000000)  returns 0x00 (0000ms, 0980ms total)
T0C9C 002:764 JLINK_WriteReg(R11, 0x00000000)  returns 0x00 (0000ms, 0980ms total)
T0C9C 002:764 JLINK_WriteReg(R12, 0x00000000)  returns 0x00 (0000ms, 0980ms total)
T0C9C 002:764 JLINK_WriteReg(R13, 0x20000800)  returns 0x00 (0000ms, 0980ms total)
T0C9C 002:764 JLINK_WriteReg(R14, 0x20000001)  returns 0x00 (0000ms, 0980ms total)
T0C9C 002:764 JLINK_WriteReg(R15, 0x200000BC)  returns 0x00 (0000ms, 0980ms total)
T0C9C 002:764 JLINK_WriteReg(XPSR, 0x01000000)  returns 0x00 (0000ms, 0980ms total)
T0C9C 002:764 JLINK_WriteReg(MSP, 0x20000800)  returns 0x00 (0000ms, 0980ms total)
T0C9C 002:764 JLINK_WriteReg(PSP, 0x20000800)  returns 0x00 (0000ms, 0980ms total)
T0C9C 002:764 JLINK_WriteReg(CFBP, 0x00000000)  returns 0x00 (0000ms, 0980ms total)
T0C9C 002:764 JLINK_SetBPEx(Addr = 0x20000000, Type = 0xFFFFFFF2)  returns 0x0000000B (0000ms, 0980ms total)
T0C9C 002:764 JLINK_Go() -- CPU_WriteMem(4 bytes @ 0xE0002008) -- CPU_WriteMem(4 bytes @ 0xE000200C) -- CPU_WriteMem(4 bytes @ 0xE0002010) -- CPU_WriteMem(4 bytes @ 0xE0002014) -- CPU_WriteMem(4 bytes @ 0xE0002018) -- CPU_WriteMem(4 bytes @ 0xE000201C) (0009ms, 0980ms total)
T0C9C 002:773 JLINK_IsHalted()  returns FALSE (0001ms, 0989ms total)
T0C9C 002:824 JLINK_IsHalted()  returns FALSE (0001ms, 0989ms total)
T0C9C 002:875 JLINK_IsHalted()  returns FALSE (0001ms, 0989ms total)
T0C9C 002:926 JLINK_IsHalted()  returns FALSE (0001ms, 0989ms total)
T0C9C 002:977 JLINK_IsHalted()  returns FALSE (0001ms, 0989ms total)
T0C9C 003:028 JLINK_IsHalted()  returns FALSE (0001ms, 0989ms total)
T0C9C 003:079 JLINK_IsHalted()  returns FALSE (0002ms, 0989ms total)
T0C9C 003:131 JLINK_IsHalted()  returns FALSE (0036ms, 0989ms total)
T0C9C 003:217 JLINK_IsHalted()  returns FALSE (0001ms, 0989ms total)
T0C9C 003:268 JLINK_IsHalted()  returns FALSE (0001ms, 0989ms total)
T0C9C 003:319 JLINK_IsHalted()  returns FALSE (0001ms, 0989ms total)
T0C9C 003:370 JLINK_IsHalted()  returns FALSE (0001ms, 0989ms total)
T0C9C 003:421 JLINK_IsHalted()  returns FALSE (0001ms, 0989ms total)
T0C9C 003:472 JLINK_IsHalted()  returns FALSE (0001ms, 0989ms total)
T0C9C 003:523 JLINK_IsHalted()  returns FALSE (0001ms, 0989ms total)
T0C9C 003:574 JLINK_IsHalted()  returns FALSE (0001ms, 0989ms total)
T0C9C 003:625 JLINK_IsHalted()  returns FALSE (0001ms, 0989ms total)
T0C9C 003:676 JLINK_IsHalted()  returns FALSE (0001ms, 0989ms total)
T0C9C 003:727 JLINK_IsHalted()  returns FALSE (0001ms, 0989ms total)
T0C9C 003:778 JLINK_IsHalted()  returns FALSE (0001ms, 0989ms total)
T0C9C 003:829 JLINK_IsHalted() -- CPU_ReadMem(2 bytes @ 0x20000000)  returns TRUE (0005ms, 0989ms total)
T0C9C 003:834 JLINK_ReadReg(R15)  returns 0x20000000 (0000ms, 0989ms total)
T0C9C 003:834 JLINK_ClrBPEx(BPHandle = 0x0000000B)  returns 0x00 (0000ms, 0989ms total)
T0C9C 003:834 JLINK_ReadReg(R0)  returns 0x00000000 (0000ms, 0989ms total)
T0C9C 003:834 JLINK_WriteReg(R0, 0x00000001)  returns 0x00 (0000ms, 0989ms total)
T0C9C 003:834 JLINK_WriteReg(R1, 0x00010000)  returns 0x00 (0000ms, 0989ms total)
T0C9C 003:834 JLINK_WriteReg(R2, 0x000000FF)  returns 0x00 (0000ms, 0989ms total)
T0C9C 003:834 JLINK_WriteReg(R3, 0x00000000)  returns 0x00 (0000ms, 0989ms total)
T0C9C 003:834 JLINK_WriteReg(R4, 0x00000000)  returns 0x00 (0000ms, 0989ms total)
T0C9C 003:835 JLINK_WriteReg(R5, 0x00000000)  returns 0x00 (0000ms, 0990ms total)
T0C9C 003:835 JLINK_WriteReg(R6, 0x00000000)  returns 0x00 (0000ms, 0990ms total)
T0C9C 003:835 JLINK_WriteReg(R7, 0x00000000)  returns 0x00 (0000ms, 0990ms total)
T0C9C 003:835 JLINK_WriteReg(R8, 0x00000000)  returns 0x00 (0000ms, 0990ms total)
T0C9C 003:835 JLINK_WriteReg(R9, 0x2000017C)  returns 0x00 (0000ms, 0990ms total)
T0C9C 003:835 JLINK_WriteReg(R10, 0x00000000)  returns 0x00 (0000ms, 0990ms total)
T0C9C 003:835 JLINK_WriteReg(R11, 0x00000000)  returns 0x00 (0000ms, 0990ms total)
T0C9C 003:835 JLINK_WriteReg(R12, 0x00000000)  returns 0x00 (0000ms, 0990ms total)
T0C9C 003:835 JLINK_WriteReg(R13, 0x20000800)  returns 0x00 (0000ms, 0990ms total)
T0C9C 003:835 JLINK_WriteReg(R14, 0x20000001)  returns 0x00 (0000ms, 0990ms total)
T0C9C 003:835 JLINK_WriteReg(R15, 0x20000082)  returns 0x00 (0000ms, 0990ms total)
T0C9C 003:835 JLINK_WriteReg(XPSR, 0x01000000)  returns 0x00 (0000ms, 0990ms total)
T0C9C 003:835 JLINK_WriteReg(MSP, 0x20000800)  returns 0x00 (0000ms, 0990ms total)
T0C9C 003:835 JLINK_WriteReg(PSP, 0x20000800)  returns 0x00 (0000ms, 0990ms total)
T0C9C 003:835 JLINK_WriteReg(CFBP, 0x00000000)  returns 0x00 (0000ms, 0990ms total)
T0C9C 003:835 JLINK_SetBPEx(Addr = 0x20000000, Type = 0xFFFFFFF2)  returns 0x0000000C (0001ms, 0990ms total)
T0C9C 003:836 JLINK_Go() -- CPU_WriteMem(4 bytes @ 0xE0002008) -- CPU_WriteMem(4 bytes @ 0xE000200C) -- CPU_WriteMem(4 bytes @ 0xE0002010) -- CPU_WriteMem(4 bytes @ 0xE0002014) -- CPU_WriteMem(4 bytes @ 0xE0002018) -- CPU_WriteMem(4 bytes @ 0xE000201C) (0008ms, 0991ms total)
T0C9C 003:844 JLINK_IsHalted() -- CPU_ReadMem(2 bytes @ 0x20000000)  returns TRUE (0005ms, 0999ms total)
T0C9C 003:849 JLINK_ReadReg(R15)  returns 0x20000000 (0000ms, 0999ms total)
T0C9C 003:849 JLINK_ClrBPEx(BPHandle = 0x0000000C)  returns 0x00 (0000ms, 0999ms total)
T0C9C 003:849 JLINK_ReadReg(R0)  returns 0x00000000 (0000ms, 0999ms total)
T0C9C 003:904 JLINK_WriteMem(0x20000000, 0x0180 Bytes, ...) -- Data:  00 BE 0A E0 0D 78 2D 06 68 40 08 24 40 00 00 D3 ... -- CPU_WriteMem(384 bytes @ 0x20000000)  returns 0x180 (0005ms, 0999ms total)
T0C9C 003:909 JLINK_WriteReg(R0, 0x08000000)  returns 0x00 (0000ms, 1004ms total)
T0C9C 003:909 JLINK_WriteReg(R1, 0x017D7840)  returns 0x00 (0000ms, 1004ms total)
T0C9C 003:909 JLINK_WriteReg(R2, 0x00000002)  returns 0x00 (0000ms, 1004ms total)
T0C9C 003:909 JLINK_WriteReg(R3, 0x00000000)  returns 0x00 (0000ms, 1004ms total)
T0C9C 003:909 JLINK_WriteReg(R4, 0x00000000)  returns 0x00 (0000ms, 1004ms total)
T0C9C 003:909 JLINK_WriteReg(R5, 0x00000000)  returns 0x00 (0000ms, 1004ms total)
T0C9C 003:909 JLINK_WriteReg(R6, 0x00000000)  returns 0x00 (0000ms, 1004ms total)
T0C9C 003:909 JLINK_WriteReg(R7, 0x00000000)  returns 0x00 (0000ms, 1004ms total)
T0C9C 003:909 JLINK_WriteReg(R8, 0x00000000)  returns 0x00 (0001ms, 1004ms total)
T0C9C 003:910 JLINK_WriteReg(R9, 0x2000017C)  returns 0x00 (0000ms, 1005ms total)
T0C9C 003:910 JLINK_WriteReg(R10, 0x00000000)  returns 0x00 (0000ms, 1005ms total)
T0C9C 003:910 JLINK_WriteReg(R11, 0x00000000)  returns 0x00 (0000ms, 1005ms total)
T0C9C 003:910 JLINK_WriteReg(R12, 0x00000000)  returns 0x00 (0000ms, 1005ms total)
T0C9C 003:910 JLINK_WriteReg(R13, 0x20000800)  returns 0x00 (0000ms, 1005ms total)
T0C9C 003:910 JLINK_WriteReg(R14, 0x20000001)  returns 0x00 (0000ms, 1005ms total)
T0C9C 003:910 JLINK_WriteReg(R15, 0x20000054)  returns 0x00 (0000ms, 1005ms total)
T0C9C 003:910 JLINK_WriteReg(XPSR, 0x01000000)  returns 0x00 (0000ms, 1005ms total)
T0C9C 003:910 JLINK_WriteReg(MSP, 0x20000800)  returns 0x00 (0000ms, 1005ms total)
T0C9C 003:910 JLINK_WriteReg(PSP, 0x20000800)  returns 0x00 (0000ms, 1005ms total)
T0C9C 003:910 JLINK_WriteReg(CFBP, 0x00000000)  returns 0x00 (0000ms, 1005ms total)
T0C9C 003:910 JLINK_SetBPEx(Addr = 0x20000000, Type = 0xFFFFFFF2) -- CPU_ReadMem(4 bytes @ 0x20000000) -- CPU_WriteMem(4 bytes @ 0x20000000) -- CPU_ReadMem(4 bytes @ 0x20000000) -- CPU_WriteMem(4 bytes @ 0x20000000) -- CPU_ReadMem(2 bytes @ 0x20000000)  returns 0x0000000D (0006ms, 1005ms total)
T0C9C 003:916 JLINK_Go() -- CPU_WriteMem(2 bytes @ 0x20000000) -- CPU_WriteMem(4 bytes @ 0xE0002008) -- CPU_WriteMem(4 bytes @ 0xE000200C) -- CPU_WriteMem(4 bytes @ 0xE0002010) -- CPU_WriteMem(4 bytes @ 0xE0002014) -- CPU_WriteMem(4 bytes @ 0xE0002018) -- CPU_WriteMem(4 bytes @ 0xE000201C) (0009ms, 1011ms total)
T0C9C 003:925 JLINK_IsHalted() -- CPU_ReadMem(2 bytes @ 0x20000000)  returns TRUE (0005ms, 1020ms total)
T0C9C 003:930 JLINK_ReadReg(R15)  returns 0x20000000 (0000ms, 1020ms total)
T0C9C 003:930 JLINK_ClrBPEx(BPHandle = 0x0000000D)  returns 0x00 (0000ms, 1020ms total)
T0C9C 003:930 JLINK_ReadReg(R0)  returns 0x00000000 (0000ms, 1020ms total)
T0C9C 003:930 JLINK_WriteMem(0x20000180, 0x0400 Bytes, ...) -- Data:  D8 93 00 20 9D 01 00 08 05 D4 00 08 25 B7 00 08 ... -- CPU_WriteMem(1024 bytes @ 0x20000180)  returns 0x400 (0009ms, 1020ms total)
T0C9C 003:939 JLINK_WriteReg(R0, 0x08000000)  returns 0x00 (0000ms, 1029ms total)
T0C9C 003:939 JLINK_WriteReg(R1, 0x00000400)  returns 0x00 (0000ms, 1029ms total)
T0C9C 003:939 JLINK_WriteReg(R2, 0x20000180)  returns 0x00 (0000ms, 1029ms total)
T0C9C 003:939 JLINK_WriteReg(R3, 0x00000000)  returns 0x00 (0000ms, 1029ms total)
T0C9C 003:939 JLINK_WriteReg(R4, 0x00000000)  returns 0x00 (0000ms, 1029ms total)
T0C9C 003:939 JLINK_WriteReg(R5, 0x00000000)  returns 0x00 (0000ms, 1029ms total)
T0C9C 003:939 JLINK_WriteReg(R6, 0x00000000)  returns 0x00 (0000ms, 1029ms total)
T0C9C 003:939 JLINK_WriteReg(R7, 0x00000000)  returns 0x00 (0000ms, 1029ms total)
T0C9C 003:939 JLINK_WriteReg(R8, 0x00000000)  returns 0x00 (0000ms, 1029ms total)
T0C9C 003:939 JLINK_WriteReg(R9, 0x2000017C)  returns 0x00 (0000ms, 1029ms total)
T0C9C 003:939 JLINK_WriteReg(R10, 0x00000000)  returns 0x00 (0001ms, 1029ms total)
T0C9C 003:940 JLINK_WriteReg(R11, 0x00000000)  returns 0x00 (0000ms, 1030ms total)
T0C9C 003:940 JLINK_WriteReg(R12, 0x00000000)  returns 0x00 (0000ms, 1030ms total)
T0C9C 003:940 JLINK_WriteReg(R13, 0x20000800)  returns 0x00 (0000ms, 1030ms total)
T0C9C 003:940 JLINK_WriteReg(R14, 0x20000001)  returns 0x00 (0000ms, 1030ms total)
T0C9C 003:940 JLINK_WriteReg(R15, 0x20000108)  returns 0x00 (0000ms, 1030ms total)
T0C9C 003:940 JLINK_WriteReg(XPSR, 0x01000000)  returns 0x00 (0000ms, 1030ms total)
T0C9C 003:940 JLINK_WriteReg(MSP, 0x20000800)  returns 0x00 (0000ms, 1030ms total)
T0C9C 003:940 JLINK_WriteReg(PSP, 0x20000800)  returns 0x00 (0000ms, 1030ms total)
T0C9C 003:940 JLINK_WriteReg(CFBP, 0x00000000)  returns 0x00 (0000ms, 1030ms total)
T0C9C 003:940 JLINK_SetBPEx(Addr = 0x20000000, Type = 0xFFFFFFF2)  returns 0x0000000E (0000ms, 1030ms total)
T0C9C 003:940 JLINK_Go() -- CPU_WriteMem(4 bytes @ 0xE0002008) -- CPU_WriteMem(4 bytes @ 0xE000200C) -- CPU_WriteMem(4 bytes @ 0xE0002010) -- CPU_WriteMem(4 bytes @ 0xE0002014) -- CPU_WriteMem(4 bytes @ 0xE0002018) -- CPU_WriteMem(4 bytes @ 0xE000201C) (0008ms, 1030ms total)
T0C9C 003:948 JLINK_IsHalted()  returns FALSE (0001ms, 1038ms total)
T0C9C 003:999 JLINK_IsHalted() -- CPU_ReadMem(2 bytes @ 0x20000000)  returns TRUE (0005ms, 1038ms total)
T0C9C 004:004 JLINK_ReadReg(R15)  returns 0x20000000 (0000ms, 1038ms total)
T0C9C 004:004 JLINK_ClrBPEx(BPHandle = 0x0000000E)  returns 0x00 (0000ms, 1038ms total)
T0C9C 004:004 JLINK_ReadReg(R0)  returns 0x00000000 (0000ms, 1038ms total)
T0C9C 004:004 JLINK_WriteMem(0x20000180, 0x0400 Bytes, ...) -- Data:  51 B1 81 42 02 D1 4F F0 00 41 05 E0 02 D2 4F F0 ... -- CPU_WriteMem(1024 bytes @ 0x20000180)  returns 0x400 (0009ms, 1038ms total)
T0C9C 004:013 JLINK_WriteReg(R0, 0x08000400)  returns 0x00 (0000ms, 1047ms total)
T0C9C 004:013 JLINK_WriteReg(R1, 0x00000400)  returns 0x00 (0000ms, 1047ms total)
T0C9C 004:013 JLINK_WriteReg(R2, 0x20000180)  returns 0x00 (0000ms, 1047ms total)
T0C9C 004:013 JLINK_WriteReg(R3, 0x00000000)  returns 0x00 (0000ms, 1047ms total)
T0C9C 004:013 JLINK_WriteReg(R4, 0x00000000)  returns 0x00 (0000ms, 1047ms total)
T0C9C 004:013 JLINK_WriteReg(R5, 0x00000000)  returns 0x00 (0000ms, 1047ms total)
T0C9C 004:013 JLINK_WriteReg(R6, 0x00000000)  returns 0x00 (0000ms, 1047ms total)
T0C9C 004:013 JLINK_WriteReg(R7, 0x00000000)  returns 0x00 (0000ms, 1047ms total)
T0C9C 004:013 JLINK_WriteReg(R8, 0x00000000)  returns 0x00 (0000ms, 1047ms total)
T0C9C 004:013 JLINK_WriteReg(R9, 0x2000017C)  returns 0x00 (0000ms, 1047ms total)
T0C9C 004:013 JLINK_WriteReg(R10, 0x00000000)  returns 0x00 (0001ms, 1047ms total)
T0C9C 004:014 JLINK_WriteReg(R11, 0x00000000)  returns 0x00 (0000ms, 1048ms total)
T0C9C 004:014 JLINK_WriteReg(R12, 0x00000000)  returns 0x00 (0000ms, 1048ms total)
T0C9C 004:014 JLINK_WriteReg(R13, 0x20000800)  returns 0x00 (0000ms, 1048ms total)
T0C9C 004:014 JLINK_WriteReg(R14, 0x20000001)  returns 0x00 (0000ms, 1048ms total)
T0C9C 004:014 JLINK_WriteReg(R15, 0x20000108)  returns 0x00 (0000ms, 1048ms total)
T0C9C 004:014 JLINK_WriteReg(XPSR, 0x01000000)  returns 0x00 (0000ms, 1048ms total)
T0C9C 004:014 JLINK_WriteReg(MSP, 0x20000800)  returns 0x00 (0000ms, 1048ms total)
T0C9C 004:014 JLINK_WriteReg(PSP, 0x20000800)  returns 0x00 (0000ms, 1048ms total)
T0C9C 004:014 JLINK_WriteReg(CFBP, 0x00000000)  returns 0x00 (0000ms, 1048ms total)
T0C9C 004:014 JLINK_SetBPEx(Addr = 0x20000000, Type = 0xFFFFFFF2)  returns 0x0000000F (0000ms, 1048ms total)
T0C9C 004:014 JLINK_Go() -- CPU_WriteMem(4 bytes @ 0xE0002008) -- CPU_WriteMem(4 bytes @ 0xE000200C) -- CPU_WriteMem(4 bytes @ 0xE0002010) -- CPU_WriteMem(4 bytes @ 0xE0002014) -- CPU_WriteMem(4 bytes @ 0xE0002018) -- CPU_WriteMem(4 bytes @ 0xE000201C) (0008ms, 1048ms total)
T0C9C 004:023 JLINK_IsHalted()  returns FALSE (0001ms, 1056ms total)
T0C9C 004:074 JLINK_IsHalted() -- CPU_ReadMem(2 bytes @ 0x20000000)  returns TRUE (0005ms, 1056ms total)
T0C9C 004:079 JLINK_ReadReg(R15)  returns 0x20000000 (0000ms, 1056ms total)
T0C9C 004:079 JLINK_ClrBPEx(BPHandle = 0x0000000F)  returns 0x00 (0000ms, 1056ms total)
T0C9C 004:079 JLINK_ReadReg(R0)  returns 0x00000000 (0000ms, 1056ms total)
T0C9C 004:079 JLINK_WriteMem(0x20000180, 0x0400 Bytes, ...) -- Data:  40 F2 33 43 9A 42 A2 F2 33 42 03 DC 52 42 00 F0 ... -- CPU_WriteMem(1024 bytes @ 0x20000180)  returns 0x400 (0009ms, 1056ms total)
T0C9C 004:088 JLINK_WriteReg(R0, 0x08000800)  returns 0x00 (0001ms, 1065ms total)
T0C9C 004:089 JLINK_WriteReg(R1, 0x00000400)  returns 0x00 (0000ms, 1066ms total)
T0C9C 004:089 JLINK_WriteReg(R2, 0x20000180)  returns 0x00 (0000ms, 1066ms total)
T0C9C 004:089 JLINK_WriteReg(R3, 0x00000000)  returns 0x00 (0000ms, 1066ms total)
T0C9C 004:089 JLINK_WriteReg(R4, 0x00000000)  returns 0x00 (0000ms, 1066ms total)
T0C9C 004:089 JLINK_WriteReg(R5, 0x00000000)  returns 0x00 (0000ms, 1066ms total)
T0C9C 004:089 JLINK_WriteReg(R6, 0x00000000)  returns 0x00 (0000ms, 1066ms total)
T0C9C 004:089 JLINK_WriteReg(R7, 0x00000000)  returns 0x00 (0000ms, 1066ms total)
T0C9C 004:089 JLINK_WriteReg(R8, 0x00000000)  returns 0x00 (0000ms, 1066ms total)
T0C9C 004:089 JLINK_WriteReg(R9, 0x2000017C)  returns 0x00 (0000ms, 1066ms total)
T0C9C 004:089 JLINK_WriteReg(R10, 0x00000000)  returns 0x00 (0001ms, 1066ms total)
T0C9C 004:090 JLINK_WriteReg(R11, 0x00000000)  returns 0x00 (0000ms, 1067ms total)
T0C9C 004:090 JLINK_WriteReg(R12, 0x00000000)  returns 0x00 (0000ms, 1067ms total)
T0C9C 004:090 JLINK_WriteReg(R13, 0x20000800)  returns 0x00 (0000ms, 1067ms total)
T0C9C 004:090 JLINK_WriteReg(R14, 0x20000001)  returns 0x00 (0000ms, 1067ms total)
T0C9C 004:090 JLINK_WriteReg(R15, 0x20000108)  returns 0x00 (0000ms, 1067ms total)
T0C9C 004:090 JLINK_WriteReg(XPSR, 0x01000000)  returns 0x00 (0000ms, 1067ms total)
T0C9C 004:090 JLINK_WriteReg(MSP, 0x20000800)  returns 0x00 (0000ms, 1067ms total)
T0C9C 004:090 JLINK_WriteReg(PSP, 0x20000800)  returns 0x00 (0000ms, 1067ms total)
T0C9C 004:090 JLINK_WriteReg(CFBP, 0x00000000)  returns 0x00 (0000ms, 1067ms total)
T0C9C 004:090 JLINK_SetBPEx(Addr = 0x20000000, Type = 0xFFFFFFF2)  returns 0x00000010 (0000ms, 1067ms total)
